EC-Lab ASCII FILE
Nb header lines : 60                          

Potentio Electrochemical Impedance Spectroscopy

Run on channel : 1 (SN 2334)
User : 
Electrode connection : standard
Ewe ctrl range : min = -1.00 V, max = 1.00 V
Ewe,I filtering : <None>
Channel : Floating
Acquisition started on : 10/06/2015 14:34:19
Saved on :
	File : BC52-7-100C_C01.mpr
	Directory : C:\Users\Administrator\Documents\EC-Lab\Data\Frank\BC52\
	Host : 127.0.0.1
Device : SP-200 (SN 0337)
Address : USB
EC-Lab for windows v10.37 (software)
Internet server v10.37 (firmware)
Command interpretor v10.36 (firmware)
Electrode material : 
Initial state : 
Electrolyte : 
Comments : 
Cable : low current
Electrode surface area : 0.001 cm²
Characteristic mass : 0.001 g
Equivalent Weight : 0.000 g/eq.
Density : 0.000 g/cm3
Multi Sine          0                   
E (V)               0.0000              
vs.                 Eoc                 
tE (h:m:s)          0:00:0.0000         
record              0                   
dI                  0.000               
unit dI             mA                  
dt (s)              0.000               
fi                  1.000               
unit fi             MHz                 
ff                  10.000              
unit ff             mHz                 
Sel Nd              1                   
Nd                  6                   
Nt                  51                  
Log                 1                   
Va (mV)             10.0                
pw                  1.00                
Na                  3                   
E range min (V)     -1.000              
E range max (V)     1.000               
I Range             Auto                
Bandwidth           8                   
corr                0                   
nc cycles           0                   
goto Ns'            0                   
nr cycles           0                   
inc. cycle          0                   

freq/Hz	Re(Z)/Ohm	-Im(Z)/Ohm	|Z|/Ohm	Phase(Z)/deg	time/s	<Ewe>/V	<I>/mA	Cs/µF	Cp/µF	cycle number	I Range	|Ewe|/V	|I|/A	Re(Y)/Ohm-1	Im(Y)/Ohm-1	|Y|/Ohm-1	Phase(Y)/deg
1.0000243E+006	2.1825346E+002	1.6853716E+002	2.7575232E+002	-3.7675621E+001	8.477594615920680E+000	-1.0017319E-002	-3.0087037E-003	9.4430853E-004	3.5274989E-004	1.000000000000000E+000	39	9.7402036E-003	3.5322289E-005	2.8702703E-003	2.2164467E-003	3.6264427E-003	3.7675621E+001
6.7575675E+005	2.6642841E+002	1.9326627E+002	3.2914426E+002	-3.5957005E+001	8.969582852587337E+000	-9.9527026E-003	-1.5584411E-003	1.2186350E-003	4.2015855E-004	1.000000000000000E+000	39	1.0502118E-002	3.1907341E-005	2.4592797E-003	1.7839533E-003	3.0381815E-003	3.5957005E+001
4.5664059E+005	3.2276956E+002	2.1874062E+002	3.8990723E+002	-3.4125454E+001	9.461592315958114E+000	-9.9698063E-003	-1.5026981E-003	1.5933684E-003	5.0147867E-004	1.000000000000000E+000	39	1.0627563E-002	2.7256647E-005	2.1230979E-003	1.4388213E-003	2.5647127E-003	3.4125454E+001
3.0858150E+005	3.8472369E+002	2.3436223E+002	4.5048639E+002	-3.1348530E+001	9.953583832742879E+000	-9.9713905E-003	-1.4532935E-003	2.2007090E-003	5.9562718E-004	1.000000000000000E+000	39	1.0612180E-002	2.3557159E-005	1.8957698E-003	1.1548466E-003	2.2198230E-003	3.1348530E+001
2.0852048E+005	4.5506470E+002	2.4476022E+002	5.1671216E+002	-2.8273943E+001	1.044557625611196E+001	-9.9789919E-003	-1.4225323E-003	3.1183911E-003	6.9970486E-004	1.000000000000000E+000	39	1.0644355E-002	2.0600162E-005	1.7044167E-003	9.1673422E-004	1.9353135E-003	2.8273943E+001
1.4090573E+005	5.3900330E+002	2.4057228E+002	5.9025385E+002	-2.4052546E+001	1.115558756983955E+001	-9.9888863E-003	-1.4442396E-004	4.6951110E-003	7.7993679E-004	1.000000000000000E+000	40	9.3668066E-003	1.5869116E-005	1.5470836E-003	6.9050677E-004	1.6941864E-003	2.4052546E+001
9.5214836E+004	6.0997913E+002	2.2345828E+002	6.4962152E+002	-2.0119682E+001	1.164758297978551E+001	-9.9693220E-003	-1.4814943E-004	7.4803010E-003	8.8509760E-004	1.000000000000000E+000	40	1.0455807E-002	1.6095228E-005	1.4454203E-003	5.2951177E-004	1.5393578E-003	2.0119682E+001
6.4343258E+004	6.7290344E+002	1.9989848E+002	7.0196753E+002	-1.6545033E+001	1.213958934988477E+001	-9.9950349E-003	-1.3952494E-004	1.2373927E-002	1.0034426E-003	1.000000000000000E+000	40	1.0626952E-002	1.5138809E-005	1.3655848E-003	4.0567241E-004	1.4245673E-003	1.6545033E+001
4.3481438E+004	7.2164850E+002	1.6501706E+002	7.4027509E+002	-1.2880195E+001	1.263158702655346E+001	-1.0007537E-002	-1.3289356E-004	2.2181319E-002	1.1021959E-003	1.000000000000000E+000	40	1.0597568E-002	1.4315717E-005	1.3168595E-003	3.0112205E-004	1.3508492E-003	1.2880195E+001
2.9382324E+004	7.5386993E+002	1.3499651E+002	7.6586157E+002	-1.0152428E+001	1.312357763657928E+001	-9.9746883E-003	-1.3734553E-004	4.0124666E-002	1.2466827E-003	1.000000000000000E+000	40	1.0550064E-002	1.3775419E-005	1.2852745E-003	2.3015584E-004	1.3057190E-003	1.0152428E+001
1.9860840E+004	7.7995990E+002	1.0687792E+002	7.8724860E+002	-7.8026466E+000	1.361559352665790E+001	-9.9855512E-003	-1.5558182E-004	7.4978113E-002	1.3819322E-003	1.000000000000000E+000	40	1.0561331E-002	1.3415497E-005	1.2584863E-003	1.7245041E-004	1.2702468E-003	7.8026466E+000
1.3415522E+004	7.9533002E+002	8.8831627E+001	8.0027551E+002	-6.3730397E+000	1.410757587003172E+001	-9.9989101E-003	-1.4882005E-004	1.3355032E-001	1.6455122E-003	1.000000000000000E+000	40	1.0422771E-002	1.3023978E-005	1.2418476E-003	1.3870386E-004	1.2495697E-003	6.3730397E+000
9.1339268E+003	8.0581061E+002	7.7954742E+001	8.0957251E+002	-5.5256433E+000	1.474739734045579E+001	-1.0021903E-002	-1.4529948E-004	2.2352187E-001	2.0724956E-003	1.000000000000000E+000	40	1.0309953E-002	1.2735059E-005	1.2294799E-003	1.1894085E-004	1.2352198E-003	5.5256433E+000
6.1409619E+003	8.1419775E+002	7.5184990E+001	8.1766174E+002	-5.2758689E+000	1.565963965048650E+001	-1.0058450E-002	-1.3054651E-004	3.4470898E-001	2.9145232E-003	1.000000000000000E+000	40	1.0100907E-002	1.2353405E-005	1.2178185E-003	1.1245630E-004	1.2229997E-003	5.2758689E+000
4.1413232E+003	8.2410413E+002	7.7549133E+001	8.2774481E+002	-5.3757677E+000	1.673346055476577E+001	-1.0056744E-002	-1.3464458E-004	4.9556890E-001	4.3497575E-003	1.000000000000000E+000	40	1.0145416E-002	1.2256696E-005	1.2027881E-003	1.1318373E-004	1.2081017E-003	5.3757677E+000
2.7973130E+003	8.3223273E+002	8.9049217E+001	8.3698334E+002	-6.1074328E+000	1.758876835543197E+001	-1.0033072E-002	-1.4533671E-004	6.3892370E-001	7.2322856E-003	1.000000000000000E+000	40	1.0848654E-002	1.2961612E-005	1.1879856E-003	1.2711492E-004	1.1947670E-003	6.1074328E+000
1.8906072E+003	8.4313348E+002	1.0720205E+002	8.4992139E+002	-7.2461162E+000	1.866350165978656E+001	-1.0059576E-002	-1.4371613E-004	7.8526407E-001	1.2492932E-002	1.000000000000000E+000	40	1.0127973E-002	1.1916364E-005	1.1671827E-003	1.4840398E-004	1.1765794E-003	7.2461162E+000
1.2871176E+003	8.5780707E+002	1.3661183E+002	8.6861713E+002	-9.0487680E+000	1.952101410052273E+001	-1.0036706E-002	-1.4609114E-004	9.0513545E-001	2.2388935E-002	1.000000000000000E+000	40	1.0264682E-002	1.1817268E-005	1.1369276E-003	1.8106378E-004	1.1512552E-003	9.0487680E+000
8.6306775E+002	8.7918097E+002	1.7819843E+002	8.9705847E+002	-1.1457880E+001	2.037700219452381E+001	-1.0059576E-002	-1.3147789E-004	1.0348357E+000	4.0835474E-002	1.000000000000000E+000	40	1.0327754E-002	1.1512911E-005	1.0925387E-003	2.2144322E-004	1.1147546E-003	1.1457880E+001
5.8369263E+002	9.0493689E+002	2.3383057E+002	9.3465906E+002	-1.4488009E+001	2.123503058194183E+001	-1.0057770E-002	-1.4649164E-004	1.1660969E+000	7.2984524E-002	1.000000000000000E+000	40	1.0334175E-002	1.1056625E-005	1.0358858E-003	2.6766700E-004	1.0699088E-003	1.4488009E+001
3.9411707E+002	9.4507825E+002	3.0925076E+002	9.9438873E+002	-1.8119255E+001	2.209098795594764E+001	-1.0054397E-002	-1.4305489E-004	1.3058224E+000	1.2629707E-001	1.000000000000000E+000	40	1.0345889E-002	1.0404270E-005	9.5577439E-004	3.1275078E-004	1.0056429E-003	1.8119255E+001
2.6644913E+002	9.9549762E+002	4.0833395E+002	1.0759889E+003	-2.2302494E+001	2.294243026300683E+001	-1.0061449E-002	-1.3626521E-004	1.4628181E+000	2.1067147E-001	1.000000000000000E+000	40	1.0317130E-002	9.5885098E-006	8.5985387E-004	3.5269550E-004	9.2937762E-004	2.2302494E+001
1.8005743E+002	1.0666394E+003	5.3517865E+002	1.1933716E+003	-2.6644882E+001	2.379747862360091E+001	-1.0048621E-002	-1.5015203E-004	1.6516205E+000	3.3216700E-001	1.000000000000000E+000	40	1.0310613E-002	8.6399014E-006	7.4897311E-004	3.7579192E-004	8.3796197E-004	2.6644882E+001
1.2159496E+002	1.1629629E+003	7.0082635E+002	1.3578071E+003	-3.1074068E+001	2.464186343710753E+001	-1.0047372E-002	-1.4624961E-004	1.8676442E+000	4.9755239E-001	1.000000000000000E+000	40	1.0304058E-002	7.5887492E-006	6.3079706E-004	3.8013185E-004	7.3648163E-004	3.1074068E+001
8.2236526E+001	1.2889156E+003	9.0712030E+002	1.5761252E+003	-3.5137333E+001	2.547597414336633E+001	-1.0050996E-002	-1.4106189E-004	2.1334894E+000	7.0670605E-001	1.000000000000000E+000	40	1.0286951E-002	6.5267345E-006	5.1885145E-004	3.6516020E-004	6.3446735E-004	3.5137333E+001
5.5515167E+001	1.4646539E+003	1.1784631E+003	1.8798900E+003	-3.8820217E+001	2.632262591695144E+001	-1.0066862E-002	-1.4166729E-004	2.4327221E+000	9.5600379E-001	1.000000000000000E+000	40	1.0309609E-002	5.4841553E-006	4.1444809E-004	3.3346566E-004	5.3194602E-004	3.8820217E+001
3.7560089E+001	1.6852062E+003	1.5193646E+003	2.2690061E+003	-4.2037495E+001	2.747487927833572E+001	-1.0036808E-002	-3.2723867E-006	2.7888908E+000	1.2505015E+000	1.000000000000000E+000	52	1.0332810E-002	4.5538923E-006	3.2732694E-004	2.9511459E-004	4.4072160E-004	4.2037495E+001
2.5365276E+001	1.9822361E+003	1.9400148E+003	2.7736108E+003	-4.4383259E+001	2.831761785170966E+001	-1.0055850E-002	-1.7947363E-005	3.2342644E+000	1.5823208E+000	1.000000000000000E+000	52	1.0296728E-002	3.7123909E-006	2.5767027E-004	2.5218193E-004	3.6054084E-004	4.4383259E+001
1.7132683E+001	2.3620261E+003	2.4940862E+003	3.4350593E+003	-4.6557751E+001	2.907306202090695E+001	-1.0034218E-002	-2.0576401E-005	3.7246313E+000	1.9635309E+000	1.000000000000000E+000	52	1.0309659E-002	3.0013045E-006	2.0017794E-004	2.1136980E-004	2.9111578E-004	4.6557751E+001
1.1591240E+001	2.8483398E+003	3.1697437E+003	4.2614922E+003	-4.8057053E+001	2.981842680295813E+001	-1.0059865E-002	-1.6156109E-005	4.3317771E+000	2.3965747E+000	1.000000000000000E+000	52	1.0284636E-002	2.4133885E-006	1.5684419E-004	1.7454232E-004	2.3465959E-004	4.8057053E+001
7.8320503E+000	3.5117690E+003	4.0139109E+003	5.3332920E+003	-4.8817333E+001	3.089626280081575E+001	-1.0026895E-002	-1.8707839E-005	5.0626388E+000	2.8676205E+000	1.000000000000000E+000	52	1.0276275E-002	1.9268164E-006	1.2346255E-004	1.4111625E-004	1.8750146E-004	4.8817333E+001
5.2858586E+000	4.3789893E+003	5.0840181E+003	6.7099023E+003	-4.9260876E+001	3.170846158606582E+001	-1.0024660E-002	-1.7538316E-005	5.9223967E+000	3.4000030E+000	1.000000000000000E+000	52	1.0296267E-002	1.5344884E-006	9.7261618E-005	1.1292100E-004	1.4903347E-004	4.9260876E+001
3.5722475E+000	5.5119810E+003	6.3300166E+003	8.3935117E+003	-4.8951668E+001	3.319847616346669E+001	-1.0028933E-002	-5.4747325E-006	7.0383964E+000	4.0030961E+000	1.000000000000000E+000	53	1.0288108E-002	1.2257216E-006	7.8238460E-005	8.9849862E-005	1.1913964E-004	4.8951668E+001
2.4149938E+000	7.0052144E+003	7.8198481E+003	1.0498717E+004	-4.8145229E+001	3.491785835183691E+001	-1.0022823E-002	-4.5317515E-006	8.4276371E+000	4.6755209E+000	1.000000000000000E+000	53	1.0279561E-002	9.7912550E-007	6.3554893E-005	7.0945673E-005	9.5249736E-005	4.8145229E+001
1.6316844E+000	8.9583311E+003	9.5335518E+003	1.3082061E+004	-4.6781704E+001	3.744251377836918E+001	-1.0039675E-002	-4.2213755E-006	1.0231263E+001	5.4335842E+000	1.000000000000000E+000	53	1.0291127E-002	7.8665943E-007	5.2344953E-005	5.5706056E-005	7.6440556E-005	4.6781704E+001
1.1028348E+000	1.1397686E+004	1.1375846E+004	1.6103326E+004	-4.4945053E+001	4.115461483476702E+001	-1.0024716E-002	-4.2949455E-006	1.2686037E+001	6.3308520E+000	1.000000000000000E+000	53	1.0281306E-002	6.3845852E-007	4.3952696E-005	4.3868476E-005	6.2098974E-005	4.4945053E+001
7.4546778E-001	1.4400286E+004	1.3311014E+004	1.9609980E+004	-4.2748981E+001	4.662516210789909E+001	-1.0029804E-002	-3.7948503E-006	1.6039104E+001	7.3900614E+000	1.000000000000000E+000	53	1.0281676E-002	5.2430835E-007	3.7446982E-005	3.4614397E-005	5.0994440E-005	4.2748981E+001
5.0390214E-001	1.7932855E+004	1.5215274E+004	2.3517906E+004	-4.0313206E+001	5.675995554929250E+001	-1.0051835E-002	-1.6659790E-006	2.0758411E+001	8.6887321E+000	1.000000000000000E+000	54	1.0294482E-002	4.3772954E-007	3.2422922E-005	2.7509486E-005	4.2520791E-005	4.0313206E+001